;$FILEVERSION=1.1
;$STARTTIME=45944.4261303356
;
;   Start time: 14.10.2025 10:13:37.661.0
;   Generated by PCAN-View v5.3.0.942
;
;   Message Number
;   |         Time Offset (ms)
;   |         |        Type
;   |         |        |        ID (hex)
;   |         |        |        |     Data Length
;   |         |        |        |     |   Data Bytes (hex) ...
;   |         |        |        |     |   |
;---+--   ----+----  --+--  ----+---  +  -+ -- -- -- -- -- -- --
     1)         5.1  Rx         06F1  8  43 30 00 00 00 00 00 00 
     2)         5.4  Rx         0643  8  F1 21 00 00 00 00 00 00 
     3)         5.7  Rx         0643  8  F1 22 00 00 00 00 00 00 
     4)         5.9  Rx         0643  8  F1 23 00 00 00 00 00 00 
     5)        26.4  Rx         0130  5  01 F0 FC FF FF 
     6)       100.1  Rx         06F1  8  43 03 22 D6 63 00 00 00 
     7)       110.5  Rx         0643  7  F1 05 62 D6 63 7F FF 
     8)       126.3  Rx         0130  5  01 F0 FC FF FF 
     9)       175.5  Rx         06F1  8  43 03 22 D6 3B 00 00 00 
    10)       180.4  Rx         0643  6  F1 04 62 D6 3B 7F 
    11)       226.3  Rx         0130  5  01 F0 FC FF FF 
    12)       247.1  Rx         06F1  8  43 03 22 D6 31 00 00 00 
    13)       257.8  Rx         0643  8  F1 10 17 62 D6 31 00 00 
    14)       275.0  Rx         06F1  8  43 30 00 00 00 00 00 00 
    15)       275.3  Rx         0643  8  F1 21 00 00 00 00 00 00 
    16)       275.5  Rx         0643  8  F1 22 00 00 00 00 00 00 
    17)       275.8  Rx         0643  8  F1 23 00 00 00 00 00 00 
    18)       326.3  Rx         0130  5  01 F0 FC FF FF 
    19)       370.3  Rx         06F1  8  43 03 22 D6 63 00 00 00 
    20)       380.4  Rx         0643  7  F1 05 62 D6 63 7F FF 
    21)       426.4  Rx         0130  5  01 F0 FC FF FF 
    22)       448.5  Rx         06F1  8  43 03 22 D6 3B 00 00 00 
    23)       460.4  Rx         0643  6  F1 04 62 D6 3B 7F 
    24)       521.8  Rx         06F1  8  43 03 22 D6 31 00 00 00 
    25)       526.3  Rx         0130  5  01 F0 FC FF FF 
    26)       537.8  Rx         0643  8  F1 10 17 62 D6 31 00 00 
    27)       555.1  Rx         06F1  8  43 30 00 00 00 00 00 00 
    28)       555.4  Rx         0643  8  F1 21 00 00 00 00 00 00 
    29)       555.7  Rx         0643  8  F1 22 00 00 00 00 00 00 
    30)       555.9  Rx         0643  8  F1 23 00 00 00 00 00 00 
    31)       626.3  Rx         0130  5  01 F0 FC FF FF 
    32)       641.3  Rx         06F1  8  43 03 22 D6 63 00 00 00 
    33)       650.5  Rx         0643  7  F1 05 62 D6 63 7F FF 
    34)       709.1  Rx         06F1  8  43 03 22 D6 3B 00 00 00 
    35)       720.4  Rx         0643  6  F1 04 62 D6 3B 7F 
    36)       726.4  Rx         0130  5  01 F0 FC FF FF 
    37)       792.8  Rx         06F1  8  43 03 22 D6 31 00 00 00 
    38)       807.9  Rx         0643  8  F1 10 17 62 D6 31 00 00 
    39)       825.1  Rx         06F1  8  43 30 00 00 00 00 00 00 
    40)       825.4  Rx         0643  8  F1 21 00 00 00 00 00 00 
    41)       825.7  Rx         0643  8  F1 22 00 00 00 00 00 00 
    42)       825.9  Rx         0643  8  F1 23 00 00 00 00 00 00 
    43)       826.4  Rx         0130  5  01 F0 FC FF FF 
    44)       914.6  Rx         06F1  8  43 03 22 D6 63 00 00 00 
    45)       920.4  Rx         0643  7  F1 05 62 D6 63 7F FF 
    46)       926.4  Rx         0130  5  01 F0 FC FF FF 
    47)       977.8  Rx         06F1  8  43 03 22 D6 3B 00 00 00 
    48)       980.4  Rx         0643  6  F1 04 62 D6 3B 7F 
    49)      1026.3  Rx         0130  5  01 F0 FC FF FF 
    50)      1047.5  Rx         06F1  8  43 03 22 D6 31 00 00 00 
    51)      1057.8  Rx         0643  8  F1 10 17 62 D6 31 00 00 
    52)      1075.0  Rx         06F1  8  43 30 00 00 00 00 00 00 
    53)      1075.3  Rx         0643  8  F1 21 00 00 00 00 00 00 
    54)      1075.5  Rx         0643  8  F1 22 00 00 00 00 00 00 
    55)      1075.8  Rx         0643  8  F1 23 00 00 00 00 00 00 
    56)      1126.4  Rx         0130  5  01 F0 FC FF FF 
    57)      1170.3  Rx         06F1  8  43 03 22 D6 63 00 00 00 
    58)      1180.5  Rx         0643  7  F1 05 62 D6 63 7F FF 
    59)      1226.3  Rx         0130  5  01 F0 FC FF FF 
    60)      1246.8  Rx         06F1  8  43 03 22 D6 3B 00 00 00 
    61)      1250.5  Rx         0643  6  F1 04 62 D6 3B 7F 
    62)      1317.2  Rx         06F1  8  43 03 22 D6 31 00 00 00 
    63)      1326.3  Rx         0130  5  01 F0 FC FF FF 
    64)      1328.9  Rx         0643  8  F1 10 17 62 D6 31 00 00 
    65)      1346.2  Rx         06F1  8  43 30 00 00 00 00 00 00 
    66)      1346.7  Rx         0643  8  F1 21 00 00 00 00 00 00 
    67)      1346.9  Rx         0643  8  F1 22 00 00 00 00 00 00 
    68)      1347.2  Rx         0643  8  F1 23 00 00 00 00 00 00 
    69)      1426.3  Rx         0130  5  01 F0 FC FF FF 
    70)      1442.3  Rx         06F1  8  43 03 22 D6 63 00 00 00 
    71)      1450.5  Rx         0643  7  F1 05 62 D6 63 7F FF 
    72)      1508.9  Rx         06F1  8  43 03 22 D6 3B 00 00 00 
    73)      1520.5  Rx         0643  6  F1 04 62 D6 3B 7F 
    74)      1526.3  Rx         0130  5  01 F0 FC FF FF 
    75)      1592.1  Rx         06F1  8  43 03 22 D6 31 00 00 00 
    76)      1607.9  Rx         0643  8  F1 10 17 62 D6 31 00 00 
    77)      1625.1  Rx         06F1  8  43 30 00 00 00 00 00 00 
    78)      1625.4  Rx         0643  8  F1 21 00 00 00 00 00 00 
    79)      1625.6  Rx         0643  8  F1 22 00 00 00 00 00 00 
    80)      1625.9  Rx         0643  8  F1 23 00 00 00 00 00 00 
    81)      1626.5  Rx         0130  5  01 F0 FC FF FF 
    82)      1713.3  Rx         06F1  8  43 03 22 D6 63 00 00 00 
    83)      1720.5  Rx         0643  7  F1 05 62 D6 63 7F FF 
    84)      1726.3  Rx         0130  5  01 F0 FC FF FF 
    85)      1776.5  Rx         06F1  8  43 03 22 D6 3B 00 00 00 
    86)      1780.4  Rx         0643  6  F1 04 62 D6 3B 7F 
    87)      1826.3  Rx         0130  5  01 F0 FC FF FF 
    88)      1848.7  Rx         06F1  8  43 03 22 D6 31 00 00 00 
    89)      1867.9  Rx         0643  8  F1 10 17 62 D6 31 00 00 
    90)      1885.1  Rx         06F1  8  43 30 00 00 00 00 00 00 
    91)      1885.4  Rx         0643  8  F1 21 00 00 00 00 00 00 
    92)      1885.7  Rx         0643  8  F1 22 00 00 00 00 00 00 
    93)      1885.9  Rx         0643  8  F1 23 00 00 00 00 00 00 
    94)      1926.3  Rx         0130  5  01 F0 FC FF FF 
    95)      1970.0  Rx         06F1  8  43 03 22 D6 63 00 00 00 
    96)      1980.5  Rx         0643  7  F1 05 62 D6 63 7F FF 
    97)      2026.4  Rx         0130  5  01 F0 FC FF FF 
    98)      2047.2  Rx         06F1  8  43 03 22 D6 3B 00 00 00 
    99)      2050.5  Rx         0643  6  F1 04 62 D6 3B 7F 
   100)      2117.4  Rx         06F1  8  43 03 22 D6 31 00 00 00 
   101)      2126.4  Rx         0130  5  01 F0 FC FF FF 
   102)      2128.8  Rx         0643  8  F1 10 17 62 D6 31 00 00 
   103)      2146.1  Rx         06F1  8  43 30 00 00 00 00 00 00 
   104)      2146.6  Rx         0643  8  F1 21 00 00 00 00 00 00 
   105)      2146.9  Rx         0643  8  F1 22 00 00 00 00 00 00 
   106)      2147.1  Rx         0643  8  F1 23 00 00 00 00 00 00 
   107)      2226.3  Rx         0130  5  01 F0 FC FF FF 
   108)      2242.4  Rx         06F1  8  43 03 22 D6 63 00 00 00 
   109)      2250.5  Rx         0643  7  F1 05 62 D6 63 7F FF 
   110)      2309.7  Rx         06F1  8  43 03 22 D6 3B 00 00 00 
   111)      2320.4  Rx         0643  6  F1 04 62 D6 3B 7F 
   112)      2326.3  Rx         0130  5  01 F0 FC FF FF 
   113)      2391.6  Rx         06F1  8  43 03 22 D6 31 00 00 00 
   114)      2407.9  Rx         0643  8  F1 10 17 62 D6 31 00 00 
   115)      2425.1  Rx         06F1  8  43 30 00 00 00 00 00 00 
   116)      2425.4  Rx         0643  8  F1 21 00 00 00 00 00 00 
   117)      2425.7  Rx         0643  8  F1 22 00 00 00 00 00 00 
   118)      2425.9  Rx         0643  8  F1 23 00 00 00 00 00 00 
   119)      2426.6  Rx         0130  5  01 F0 FC FF FF 
   120)      2513.6  Rx         06F1  8  43 03 22 D6 63 00 00 00 
   121)      2520.5  Rx         0643  7  F1 05 62 D6 63 7F FF 
   122)      2526.3  Rx         0130  5  01 F0 FC FF FF 
   123)      2576.1  Rx         06F1  8  43 03 22 D6 3B 00 00 00 
   124)      2580.5  Rx         0643  6  F1 04 62 D6 3B 7F 
   125)      2626.3  Rx         0130  5  01 F0 FC FF FF 
   126)      2645.8  Rx         06F1  8  43 03 22 D6 31 00 00 00 
   127)      2657.7  Rx         0643  8  F1 10 17 62 D6 31 00 00 
   128)      2674.9  Rx         06F1  8  43 30 00 00 00 00 00 00 
   129)      2675.2  Rx         0643  8  F1 21 00 00 00 00 00 00 
   130)      2675.5  Rx         0643  8  F1 22 00 00 00 00 00 00 
   131)      2675.7  Rx         0643  8  F1 23 00 00 00 00 00 00 
   132)      2726.4  Rx         0130  5  01 F0 FC FF FF 
   133)      2768.6  Rx         06F1  8  43 03 22 D6 63 00 00 00 
   134)      2770.6  Rx         0643  7  F1 05 62 D6 63 7F FF 
   135)      2826.5  Rx         0130  5  01 F0 FC FF FF 
   136)      2832.4  Rx         06F1  8  43 03 22 D6 3B 00 00 00 
   137)      2840.4  Rx         0643  6  F1 04 62 D6 3B 7F 
   138)      2902.1  Rx         06F1  8  43 03 22 D6 31 00 00 00 
   139)      2917.8  Rx         0643  8  F1 10 17 62 D6 31 00 00 
   140)      2926.3  Rx         0130  5  01 F0 FC FF FF 
   141)      2935.1  Rx         06F1  8  43 30 00 00 00 00 00 00 
   142)      2935.4  Rx         0643  8  F1 21 00 00 00 00 00 00 
   143)      2935.6  Rx         0643  8  F1 22 00 00 00 00 00 00 
   144)      2935.9  Rx         0643  8  F1 23 00 00 00 00 00 00 
   145)      3023.2  Rx         06F1  8  43 03 22 D6 63 00 00 00 
   146)      3026.3  Rx         0130  5  01 F0 FC FF FF 
   147)      3030.6  Rx         0643  7  F1 05 62 D6 63 7F FF 
   148)      3086.6  Rx         06F1  8  43 03 22 D6 3B 00 00 00 
   149)      3090.5  Rx         0643  6  F1 04 62 D6 3B 7F 
   150)      3126.3  Rx         0130  5  01 F0 FC FF FF 
   151)      3160.5  Rx         06F1  8  43 03 22 D6 31 00 00 00 
   152)      3177.7  Rx         0643  8  F1 10 17 62 D6 31 00 00 
   153)      3194.8  Rx         06F1  8  43 30 00 00 00 00 00 00 
   154)      3195.1  Rx         0643  8  F1 21 00 00 00 00 00 00 
   155)      3195.4  Rx         0643  8  F1 22 00 00 00 00 00 00 
   156)      3195.6  Rx         0643  8  F1 23 00 00 00 00 00 00 
   157)      3226.6  Rx         0130  5  01 F0 FC FF FF 
   158)      3281.4  Rx         06F1  8  43 03 22 D6 63 00 00 00 
   159)      3290.5  Rx         0643  7  F1 05 62 D6 63 7F FF 
   160)      3326.4  Rx         0130  5  01 F0 FC FF FF 
   161)      3358.6  Rx         06F1  8  43 03 22 D6 3B 00 00 00 
   162)      3370.5  Rx         0643  6  F1 04 62 D6 3B 7F 
   163)      3426.4  Rx         0130  5  01 F0 FC FF FF 
   164)      3431.4  Rx         06F1  8  43 03 22 D6 31 00 00 00 
   165)      3448.1  Rx         0643  8  F1 10 17 62 D6 31 00 00 
   166)      3465.3  Rx         06F1  8  43 30 00 00 00 00 00 00 
   167)      3465.6  Rx         0643  8  F1 21 00 00 00 00 00 00 
   168)      3465.9  Rx         0643  8  F1 22 00 00 00 00 00 00 
   169)      3466.1  Rx         0643  8  F1 23 00 00 00 00 00 00 
   170)      3526.4  Rx         0130  5  01 F0 FC FF FF 
   171)      3552.0  Rx         06F1  8  43 03 22 D6 63 00 00 00 
   172)      3560.6  Rx         0643  7  F1 05 62 D6 63 7F FF 
   173)      3616.0  Rx         06F1  8  43 03 22 D6 3B 00 00 00 
   174)      3620.6  Rx         0643  6  F1 04 62 D6 3B 7F 
   175)      3626.5  Rx         0130  5  01 F0 FC FF FF 
   176)      3698.4  Rx         06F1  8  43 03 22 D6 31 00 00 00 
   177)      3708.0  Rx         0643  8  F1 10 17 62 D6 31 00 00 
   178)      3725.2  Rx         06F1  8  43 30 00 00 00 00 00 00 
   179)      3725.5  Rx         0643  8  F1 21 00 00 00 00 00 00 
   180)      3725.8  Rx         0643  8  F1 22 00 00 00 00 00 00 
   181)      3726.0  Rx         0643  8  F1 23 00 00 00 00 00 00 
   182)      3726.5  Rx         0130  5  01 F0 FC FF FF 
   183)      3826.2  Rx         06F1  8  43 03 22 D6 63 00 00 00 
   184)      3826.4  Rx         0130  5  01 F0 FC FF FF 
   185)      3830.6  Rx         0643  7  F1 05 62 D6 63 7F FF 
   186)      3890.8  Rx         06F1  8  43 03 22 D6 3B 00 00 00 
   187)      3900.6  Rx         0643  6  F1 04 62 D6 3B 7F 
   188)      3925.7  Rx         0130  5  01 F0 FC FF FF 
   189)      3976.2  Rx         06F1  8  43 03 22 D6 31 00 00 00 
   190)      3987.9  Rx         0643  8  F1 10 17 62 D6 31 00 00 
   191)      4005.1  Rx         06F1  8  43 30 00 00 00 00 00 00 
   192)      4005.3  Rx         0643  8  F1 21 00 00 00 00 00 00 
   193)      4005.6  Rx         0643  8  F1 22 00 00 00 00 00 00 
   194)      4005.8  Rx         0643  8  F1 23 00 00 00 00 00 00 
   195)      4026.6  Rx         0130  5  01 F0 FC FF FF 
   196)      4096.1  Rx         06F1  8  43 03 22 D6 63 00 00 00 
   197)      4100.6  Rx         0643  7  F1 05 62 D6 63 7F FF 
   198)      4126.4  Rx         0130  5  01 F0 FC FF FF 
   199)      4157.8  Rx         06F1  8  43 03 22 D6 3B 00 00 00 
   200)      4160.6  Rx         0643  6  F1 04 62 D6 3B 7F 
   201)      4226.4  Rx         0130  5  01 F0 FC FF FF 
   202)      4230.4  Rx         06F1  8  43 03 22 D6 31 00 00 00 
   203)      4248.0  Rx         0643  8  F1 10 17 62 D6 31 00 00 
   204)      4265.2  Rx         06F1  8  43 30 00 00 00 00 00 00 
   205)      4265.5  Rx         0643  8  F1 21 00 00 00 00 00 00 
   206)      4265.7  Rx         0643  8  F1 22 00 00 00 00 00 00 
   207)      4266.0  Rx         0643  8  F1 23 00 00 00 00 00 00 
   208)      4326.4  Rx         0130  5  01 F0 FC FF FF 
   209)      4351.2  Rx         06F1  8  43 03 22 D6 63 00 00 00 
   210)      4360.6  Rx         0643  7  F1 05 62 D6 63 7F FF 
   211)      4417.4  Rx         06F1  8  43 03 22 D6 3B 00 00 00 
   212)      4420.6  Rx         0643  6  F1 04 62 D6 3B 7F 
   213)      4426.6  Rx         0130  5  01 F0 FC FF FF 
   214)      4488.7  Rx         06F1  8  43 03 22 D6 31 00 00 00 
   215)      4497.8  Rx         0643  8  F1 10 17 62 D6 31 00 00 
   216)      4514.9  Rx         06F1  8  43 30 00 00 00 00 00 00 
   217)      4515.2  Rx         0643  8  F1 21 00 00 00 00 00 00 
   218)      4515.5  Rx         0643  8  F1 22 00 00 00 00 00 00 
   219)      4515.7  Rx         0643  8  F1 23 00 00 00 00 00 00 
   220)      4526.4  Rx         0130  5  01 F0 FC FF FF 
   221)      4608.3  Rx         06F1  8  43 03 22 D6 63 00 00 00 
   222)      4610.6  Rx         0643  7  F1 05 62 D6 63 7F FF 
   223)      4626.5  Rx         0130  5  01 F0 FC FF FF 
   224)      4670.2  Rx         06F1  8  43 03 22 D6 3B 00 00 00 
   225)      4680.6  Rx         0643  6  F1 04 62 D6 3B 7F 
   226)      4726.6  Rx         0130  5  01 F0 FC FF FF 
   227)      4743.7  Rx         06F1  8  43 03 22 D6 31 00 00 00 
   228)      4757.7  Rx         0643  8  F1 10 17 62 D6 31 00 00 
   229)      4774.8  Rx         06F1  8  43 30 00 00 00 00 00 00 
   230)      4775.2  Rx         0643  8  F1 21 00 00 00 00 00 00 
   231)      4775.5  Rx         0643  8  F1 22 00 00 00 00 00 00 
   232)      4775.7  Rx         0643  8  F1 23 00 00 00 00 00 00 
   233)      4826.7  Rx         0130  5  01 F0 FC FF FF 
   234)      4865.6  Rx         06F1  8  43 03 22 D6 63 00 00 00 
   235)      4870.7  Rx         0643  7  F1 05 62 D6 63 7F FF 
   236)      4926.5  Rx         0130  5  01 F0 FC FF FF 
   237)      4929.9  Rx         06F1  8  43 03 22 D6 3B 00 00 00 
   238)      4940.6  Rx         0643  6  F1 04 62 D6 3B 7F 
   239)      5016.2  Rx         06F1  8  43 03 22 D6 31 00 00 00 
   240)      5026.5  Rx         0130  5  01 F0 FC FF FF 
   241)      5028.3  Rx         0643  8  F1 10 17 62 D6 31 00 00 
   242)      5045.6  Rx         06F1  8  43 30 00 00 00 00 00 00 
   243)      5046.8  Rx         0643  8  F1 21 00 00 00 00 00 00 
   244)      5047.1  Rx         0643  8  F1 22 00 00 00 00 00 00 
   245)      5047.3  Rx         0643  8  F1 23 00 00 00 00 00 00 
   246)      5126.5  Rx         0130  5  01 F0 FC FF FF 
   247)      5134.3  Rx         06F1  8  43 03 22 D6 63 00 00 00 
   248)      5140.6  Rx         0643  7  F1 05 62 D6 63 7F FF 
   249)      5197.5  Rx         06F1  8  43 03 22 D6 3B 00 00 00 
   250)      5200.6  Rx         0643  6  F1 04 62 D6 3B 7F 
   251)      5226.7  Rx         0130  5  01 F0 FC FF FF 
   252)      5269.0  Rx         06F1  8  43 03 22 D6 31 00 00 00 
   253)      5288.1  Rx         0643  8  F1 10 17 62 D6 31 00 00 
   254)      5305.3  Rx         06F1  8  43 30 00 00 00 00 00 00 
   255)      5305.6  Rx         0643  8  F1 21 00 00 00 00 00 00 
   256)      5305.9  Rx         0643  8  F1 22 00 00 00 00 00 00 
   257)      5306.1  Rx         0643  8  F1 23 00 00 00 00 00 00 
   258)      5326.5  Rx         0130  5  01 F0 FC FF FF 
   259)      5391.9  Rx         06F1  8  43 03 22 D6 63 00 00 00 
   260)      5400.7  Rx         0643  7  F1 05 62 D6 63 7F FF 
   261)      5426.5  Rx         0130  5  01 F0 FC FF FF 
   262)      5457.2  Rx         06F1  8  43 03 22 D6 3B 00 00 00 
   263)      5460.6  Rx         0643  6  F1 04 62 D6 3B 7F 
   264)      5525.0  Rx         06F1  8  43 03 22 D6 31 00 00 00 
   265)      5526.6  Rx         0130  5  01 F0 FC FF FF 
   266)      5537.7  Rx         0643  8  F1 10 17 62 D6 31 00 00 
   267)      5554.9  Rx         06F1  8  43 30 00 00 00 00 00 00 
   268)      5555.1  Rx         0643  8  F1 21 00 00 00 00 00 00 
   269)      5555.4  Rx         0643  8  F1 22 00 00 00 00 00 00 
   270)      5555.6  Rx         0643  8  F1 23 00 00 00 00 00 00 
   271)      5626.6  Rx         0130  5  01 F0 FC FF FF 
   272)      5646.1  Rx         06F1  8  43 03 22 D6 63 00 00 00 
   273)      5650.7  Rx         0643  7  F1 05 62 D6 63 7F FF 
   274)      5709.2  Rx         06F1  8  43 03 22 D6 3B 00 00 00 
   275)      5720.7  Rx         0643  6  F1 04 62 D6 3B 7F 
   276)      5726.6  Rx         0130  5  01 F0 FC FF FF 
   277)      5779.3  Rx         06F1  8  43 03 22 D6 31 00 00 00 
   278)      5797.7  Rx         0643  8  F1 10 17 62 D6 31 00 00 
   279)      5814.9  Rx         06F1  8  43 30 00 00 00 00 00 00 
   280)      5815.2  Rx         0643  8  F1 21 59 0B 00 00 00 00 
   281)      5815.4  Rx         0643  8  F1 22 00 00 00 00 00 00 
   282)      5815.6  Rx         0643  8  F1 23 00 00 00 00 00 00 
   283)      5826.4  Rx         0130  5  01 F0 FC FF FF 
   284)      5903.2  Rx         06F1  8  43 03 22 D6 63 00 00 00 
   285)      5910.7  Rx         0643  7  F1 05 62 D6 63 7F FF 
   286)      5926.5  Rx         0130  5  01 F0 FC FF FF 
   287)      5969.8  Rx         06F1  8  43 03 22 D6 3B 00 00 00 
   288)      5980.6  Rx         0643  6  F1 04 62 D6 3B 7F 
   289)      6026.5  Rx         0130  5  01 F0 FC FF FF 
   290)      6054.3  Rx         06F1  8  43 03 22 D6 31 00 00 00 
   291)      6067.7  Rx         0643  8  F1 10 17 62 D6 31 00 00 
   292)      6085.0  Rx         06F1  8  43 30 00 00 00 00 00 00 
   293)      6085.2  Rx         0643  8  F1 21 59 0B 00 00 00 00 
   294)      6085.5  Rx         0643  8  F1 22 00 00 00 00 00 00 
   295)      6085.7  Rx         0643  8  F1 23 00 00 00 00 00 00 
   296)      6126.4  Rx         0130  5  01 F0 FC FF FF 
   297)      6174.0  Rx         06F1  8  43 03 22 D6 63 00 00 00 
   298)      6180.7  Rx         0643  7  F1 05 62 D6 63 7F FF 
   299)      6226.9  Rx         0130  5  01 F0 FC FF FF 
   300)      6237.4  Rx         06F1  8  43 03 22 D6 3B 00 00 00 
   301)      6240.6  Rx         0643  6  F1 04 62 D6 3B 7F 
   302)      6307.5  Rx         06F1  8  43 03 22 D6 31 00 00 00 
   303)      6319.7  Rx         0643  8  F1 10 17 62 D6 31 00 00 
   304)      6326.8  Rx         0130  5  01 F0 FC FF FF 
   305)      6336.9  Rx         06F1  8  43 30 00 00 00 00 00 00 
   306)      6337.6  Rx         0643  8  F1 21 59 0B 00 00 00 00 
   307)      6337.9  Rx         0643  8  F1 22 00 00 00 00 00 00 
   308)      6338.1  Rx         0643  8  F1 23 00 00 00 00 00 00 
   309)      6426.8  Rx         0130  5  01 F0 FC FF FF 
   310)      6430.2  Rx         06F1  8  43 03 22 D6 63 00 00 00 
   311)      6440.7  Rx         0643  7  F1 05 62 D6 63 7F FF 
   312)      6508.4  Rx         06F1  8  43 03 22 D6 3B 00 00 00 
   313)      6512.2  Rx         0643  6  F1 04 62 D6 3B 7F 
   314)      6526.7  Rx         0130  5  01 F0 FC FF FF 
   315)      6583.4  Rx         06F1  8  43 03 22 D6 31 00 00 00 
   316)      6599.6  Rx         0643  8  F1 10 17 62 D6 31 00 00 
   317)      6616.9  Rx         06F1  8  43 30 00 00 00 00 00 00 
   318)      6617.7  Rx         0643  8  F1 21 59 0B 00 00 00 00 
   319)      6618.0  Rx         0643  8  F1 22 00 00 00 00 00 00 
   320)      6618.2  Rx         0643  8  F1 23 00 00 00 00 00 00 
   321)      6626.4  Rx         0130  5  01 F0 FC FF FF 
   322)      6702.2  Rx         06F1  8  43 03 22 D6 63 00 00 00 
   323)      6710.7  Rx         0643  7  F1 05 62 D6 63 7F FF 
   324)      6726.5  Rx         0130  5  01 F0 FC FF FF 
   325)      6768.9  Rx         06F1  8  43 03 22 D6 3B 00 00 00 
   326)      6780.7  Rx         0643  6  F1 04 62 D6 3B 7F 
   327)      6826.5  Rx         0130  5  01 F0 FC FF FF 
   328)      6852.4  Rx         06F1  8  43 03 22 D6 31 00 00 00 
   329)      6867.7  Rx         0643  8  F1 10 17 62 D6 31 00 00 
   330)      6884.9  Rx         06F1  8  43 30 00 00 00 00 00 00 
   331)      6885.2  Rx         0643  8  F1 21 59 0B 00 00 00 00 
   332)      6885.4  Rx         0643  8  F1 22 00 00 00 00 00 00 
   333)      6885.7  Rx         0643  8  F1 23 00 00 00 00 00 00 
   334)      6926.6  Rx         0130  5  01 F0 FC FF FF 
   335)      6973.7  Rx         06F1  8  43 03 22 D6 63 00 00 00 
   336)      6980.7  Rx         0643  7  F1 05 62 D6 63 7F FF 
   337)      7026.4  Rx         0130  5  01 F0 FC FF FF 
   338)      7035.6  Rx         06F1  8  43 03 22 D6 3B 00 00 00 
   339)      7040.6  Rx         0643  6  F1 04 62 D6 3B 7F 
   340)      7107.2  Rx         06F1  8  43 03 22 D6 31 00 00 00 
   341)      7117.9  Rx         0643  8  F1 10 17 62 D6 31 00 00 
   342)      7126.4  Rx         0130  5  01 F0 FC FF FF 
   343)      7135.1  Rx         06F1  8  43 30 00 00 00 00 00 00 
   344)      7135.4  Rx         0643  8  F1 21 59 0B 00 00 00 00 
   345)      7135.6  Rx         0643  8  F1 22 00 00 00 00 00 00 
   346)      7135.9  Rx         0643  8  F1 23 00 00 00 00 00 00 
   347)      7226.4  Rx         0130  5  01 F0 FC FF FF 
   348)      7229.4  Rx         06F1  8  43 03 22 D6 63 00 00 00 
   349)      7240.8  Rx         0643  7  F1 05 62 D6 63 7F FF 
   350)      7307.0  Rx         06F1  8  43 03 22 D6 3B 00 00 00 
   351)      7310.7  Rx         0643  6  F1 04 62 D6 3B 7F 
   352)      7326.6  Rx         0130  5  01 F0 FC FF FF 
   353)      7378.0  Rx         06F1  8  43 03 22 D6 31 00 00 00 
   354)      7387.7  Rx         0643  8  F1 10 17 62 D6 31 00 00 
   355)      7405.0  Rx         06F1  8  43 30 00 00 00 00 00 00 
   356)      7405.2  Rx         0643  8  F1 21 59 0B 00 00 00 00 
   357)      7405.5  Rx         0643  8  F1 22 00 00 00 00 00 00 
   358)      7405.7  Rx         0643  8  F1 23 00 00 00 00 00 00 
   359)      7426.4  Rx         0130  5  01 F0 FC FF FF 
   360)      7501.5  Rx         06F1  8  43 03 22 D6 63 00 00 00 
   361)      7512.2  Rx         0643  7  F1 05 62 D6 63 7F FF 
   362)      7526.6  Rx         0130  5  01 F0 FC FF FF 
   363)      7578.3  Rx         06F1  8  43 03 22 D6 3B 00 00 00 
   364)      7580.6  Rx         0643  6  F1 04 62 D6 3B 7F 
   365)      7626.5  Rx         0130  5  01 F0 FC FF FF 
   366)      7651.5  Rx         06F1  8  43 03 22 D6 31 00 00 00 
   367)      7667.8  Rx         0643  8  F1 10 17 62 D6 31 00 00 
   368)      7685.1  Rx         06F1  8  43 30 00 00 00 00 00 00 
   369)      7685.3  Rx         0643  8  F1 21 59 0B 00 00 00 00 
   370)      7685.6  Rx         0643  8  F1 22 00 00 00 00 00 00 
   371)      7685.8  Rx         0643  8  F1 23 00 00 00 00 00 00 
   372)      7726.4  Rx         0130  5  01 F0 FC FF FF 
   373)      7774.2  Rx         06F1  8  43 03 22 D6 63 00 00 00 
   374)      7780.7  Rx         0643  7  F1 05 62 D6 63 7F FF 
   375)      7826.4  Rx         0130  5  01 F0 FC FF FF 
   376)      7835.4  Rx         06F1  8  43 03 22 D6 3B 00 00 00 
   377)      7840.6  Rx         0643  6  F1 04 62 D6 3B 7F 
   378)      7907.3  Rx         06F1  8  43 03 22 D6 31 00 00 00 
   379)      7918.2  Rx         0643  8  F1 10 17 62 D6 31 00 00 
   380)      7926.4  Rx         0130  5  01 F0 FC FF FF 
   381)      7935.4  Rx         06F1  8  43 30 00 00 00 00 00 00 
   382)      7935.7  Rx         0643  8  F1 21 59 0B 00 00 00 00 
   383)      7936.0  Rx         0643  8  F1 22 00 00 00 00 00 00 
   384)      7936.2  Rx         0643  8  F1 23 00 00 00 00 00 00 
   385)      8026.4  Rx         0130  5  01 F0 FC FF FF 
   386)      8028.8  Rx         06F1  8  43 03 22 D6 63 00 00 00 
